!CSV A.01.01
!Agilent Technologies,N5242A,MY53222371,A.10.20.02
!Agilent N5242A: A.10.20.02
!Date: Monday, August 24, 2020 22:30:07
!Source: Standard

BEGIN CH1_DATA
Freq(Hz),S11(DB),S11(DEG)
700000000,-1.4847361,124.97841
706800000,-1.5518314,114.59
713600000,-1.6809744,103.76215
720400000,-1.8980243,92.748825
727200000,-2.1983199,81.961128
734000000,-2.4741359,71.600647
740800000,-2.65499,61.126026
747600000,-2.7784996,49.849251
754400000,-2.8793893,37.674854
761200000,-3.0162449,24.691805
768000000,-3.1810322,11.08473
774800000,-3.369535,-2.9897282
781600000,-3.5817072,-17.727058
788400000,-3.8713562,-32.71838
795200000,-4.1442547,-47.58112
802000000,-4.3988075,-62.318218
808800000,-4.6286526,-77.255585
815600000,-4.8614593,-92.034859
822400000,-5.1075473,-106.21641
829200000,-5.2753577,-119.61679
836000000,-5.273252,-132.92636
842800000,-5.2412786,-147.00345
849600000,-5.2790017,-161.27246
856400000,-5.3977652,-175.5925
863200000,-5.5476437,170.34494
870000000,-5.7065592,155.85547
876800000,-6.0429549,140.27223
883600000,-6.6575441,124.69165
890400000,-7.5341744,110.12928
897200000,-8.457901,96.843178
904000000,-9.3774004,83.957787
910800000,-10.265895,70.538841
917600000,-11.22996,56.404205
924400000,-12.310547,42.213158
931200000,-13.337835,26.852673
938000000,-14.556492,10.963954
944800000,-15.39629,-3.0417709
951600000,-15.66663,-19.311092
958400000,-15.419919,-37.581177
965200000,-15.051603,-58.358696
972000000,-14.564322,-76.762062
978800000,-13.714395,-95.363251
985600000,-13.022884,-112.95676
992400000,-12.361187,-129.46457
999200000,-11.739237,-144.98886
1006000000,-11.376348,-160.80138
1012800000,-11.355483,-174.67747
1019600000,-11.357709,173.82681
1026400000,-11.376266,162.75113
1033200000,-11.354961,152.89919
1040000000,-11.272584,142.18178
1046800000,-11.285957,131.40279
1053600000,-11.287786,119.23532
1060400000,-11.616781,105.28949
1067200000,-12.278703,91.085091
1074000000,-13.284207,75.473007
1080800000,-14.821617,58.463543
1087600000,-17.04072,37.849369
1094400000,-21.201233,8.0689564
1101200000,-29.418917,-57.744148
1108000000,-25.489805,-166.10696
1114800000,-19.99477,155.86252
1121600000,-17.595398,127.53979
1128400000,-16.472555,102.29563
1135200000,-16.355577,74.565155
1142000000,-17.634874,45.069279
1148800000,-19.998299,13.801343
1155600000,-23.832027,-25.705521
1162400000,-28.270578,-77.080246
1169200000,-29.305534,-138.31715
1176000000,-27.370665,174.99438
1182800000,-26.181089,141.31842
1189600000,-25.63666,109.56427
1196400000,-25.915663,69.560074
1203200000,-26.40959,25.154268
1210000000,-24.828918,-17.218405
1216800000,-22.097826,-50.235569
1223600000,-19.129925,-77.471313
1230400000,-16.87606,-101.31934
1237200000,-15.360255,-122.6395
1244000000,-14.581038,-140.42683
1250800000,-14.070752,-154.13129
1257600000,-13.699252,-166.02438
1264400000,-13.418077,-175.79222
1271200000,-12.957241,175.67386
1278000000,-12.453105,165.76277
1284800000,-12.160862,154.96254
1291600000,-12.101822,144.4512
1298400000,-12.053524,133.70366
1305200000,-12.21659,121.6846
1312000000,-12.707359,108.78644
1318800000,-13.630132,94.984245
1325600000,-15.143991,81.300827
1332400000,-17.056826,67.02742
1339200000,-20.037838,49.121948
1346000000,-25.095627,19.900826
1352800000,-30.786816,-69.067238
1359600000,-23.012913,-139.01895
1366400000,-18.122452,-169.49849
1373200000,-15.511137,164.68317
1380000000,-14.387108,140.26526
1386800000,-14.49926,116.28031
1393600000,-15.816124,93.567276
1400400000,-18.07251,73.083786
1407200000,-21.132109,48.443054
1414000000,-26.13776,6.0389104
1420800000,-27.570356,-74.417854
1427600000,-22.975182,-126.92477
1434400000,-20.035294,-153.00569
1441200000,-18.489159,-170.45859
1448000000,-17.907999,176.17105
1454800000,-17.849064,168.48891
1461600000,-17.871414,162.19814
1468400000,-18.451902,158.88057
1475200000,-19.069134,160.36531
1482000000,-19.405714,166.59053
1488800000,-18.808523,176.7986
1495600000,-17.086641,-175.9463
1502400000,-14.900246,-174.11221
1509200000,-12.777781,-179.12137
1516000000,-11.292545,172.71158
1522800000,-10.311111,164.27785
1529600000,-9.5432644,156.22264
1536400000,-9.0817261,148.29562
1543200000,-8.6882439,141.70937
1550000000,-8.2638493,134.9594
1556800000,-7.9163718,127.99611
1563600000,-7.6760931,121.18522
1570400000,-7.4563398,114.33205
1577200000,-7.3156466,107.07904
1584000000,-7.3000441,100.07005
1590800000,-7.3058319,93.233498
1597600000,-7.3539939,86.299103
1604400000,-7.4454045,79.468292
1611200000,-7.520278,72.634003
1618000000,-7.6342998,65.429787
1624800000,-7.7337108,58.055626
1631600000,-7.8389397,49.532169
1638400000,-8.0593071,40.220783
1645200000,-8.3795738,30.165726
1652000000,-8.8001671,18.898552
1658800000,-9.4594259,6.7311859
1665600000,-10.265134,-6.5259237
1672400000,-11.237425,-21.125925
1679200000,-12.475514,-38.427113
1686000000,-13.998517,-56.981739
1692800000,-15.457026,-78.923866
1699600000,-16.949337,-105.69058
1706400000,-18.026209,-134.72968
1713200000,-18.425009,-164.16049
1720000000,-18.189419,168.63724
1726800000,-17.941612,144.00769
1733600000,-17.799604,122.63081
1740400000,-18.157516,101.82894
1747200000,-19.361422,83.564751
1754000000,-21.177244,68.201973
1760800000,-23.958494,54.25629
1767600000,-28.651299,42.848961
1774400000,-38.725159,46.105778
1781200000,-36.626579,-171.55214
1788000000,-26.775646,-174.84052
1794800000,-22.382624,172.56314
1801600000,-19.658649,159.7439
1808400000,-17.837229,147.73932
1815200000,-16.347301,135.17345
1822000000,-15.387443,120.79018
1828800000,-15.019958,105.06137
1835600000,-15.365113,89.231651
1842400000,-16.249332,76.033249
1849200000,-17.203505,64.070984
1856000000,-18.374571,51.286583
1862800000,-19.705118,37.196785
1869600000,-21.104546,20.615175
1876400000,-22.614382,1.0475464
1883200000,-23.014793,-27.479921
1890000000,-22.480576,-59.531712
1896800000,-21.155056,-87.901741
1903600000,-19.55942,-108.46764
1910400000,-17.717012,-123.27146
1917200000,-15.965701,-136.85289
1924000000,-14.608543,-148.90909
1930800000,-13.49379,-159.2657
1937600000,-12.550558,-168.15533
1944400000,-11.753602,-176.18806
1951200000,-11.035742,176.42047
1958000000,-10.436365,169.22955
1964800000,-9.9534988,162.79018
1971600000,-9.4807816,156.69238
1978400000,-9.084981,150.70227
1985200000,-8.7874203,144.86061
1992000000,-8.5449867,139.69843
1998800000,-8.2795534,134.97639
2005600000,-8.0200853,130.19096
2012400000,-7.7718744,125.41325
2019200000,-7.540731,120.55808
2026000000,-7.3540273,115.6305
2032800000,-7.1836534,110.6241
2039600000,-7.1045909,105.67736
2046400000,-7.0471411,101.12228
2053200000,-7.0118742,96.457703
2060000000,-6.9920311,92.238068
2066800000,-6.9497666,87.854607
2073600000,-6.9282041,83.355255
2080400000,-6.9345188,79.005737
2087200000,-6.9490762,74.401039
2094000000,-6.9622803,69.782013
2100800000,-6.9980369,64.751816
2107600000,-7.0625896,59.488976
2114400000,-7.1920366,54.014576
2121200000,-7.3632593,48.328106
2128000000,-7.6116905,42.653671
2134800000,-7.8971877,36.722046
2141600000,-8.2552891,30.740793
2148400000,-8.6370354,24.598089
2155200000,-9.0977945,17.914608
2162000000,-9.6494713,11.179532
2168800000,-10.277209,4.0222015
2175600000,-10.972516,-3.9328671
2182400000,-11.760373,-12.387404
2189200000,-12.591031,-22.249115
2196000000,-13.544242,-34.525249
2202800000,-14.669273,-49.611771
2209600000,-15.878664,-68.700089
2216400000,-16.96369,-92.781113
2223200000,-17.455555,-121.18741
2230000000,-17.127159,-150.81595
2236800000,-16.173811,-177.04762
2243600000,-15.002234,161.04128
2250400000,-13.997213,141.80588
2257200000,-13.376389,125.07735
2264000000,-13.246377,111.05711
2270800000,-13.327406,100.61486
2277600000,-13.449447,92.101784
2284400000,-13.673143,85.138321
2291200000,-13.877876,79.37838
2298000000,-14.064384,73.980522
2304800000,-14.300648,68.508598
2311600000,-14.611496,62.18541
2318400000,-15.270787,55.710274
2325200000,-16.22543,50.229404
2332000000,-17.47934,45.521152
2338800000,-19.213026,41.854164
2345600000,-21.503771,42.729244
2352400000,-24.155336,51.565765
2359200000,-26.234337,74.298813
2366000000,-25.393063,101.32205
2372800000,-22.551828,115.40243
2379600000,-20.138273,118.16711
2386400000,-18.28849,116.84593
2393200000,-16.868448,113.00436
2400000000,-15.897497,108.86592
2406800000,-15.116414,104.25583
2413600000,-14.459575,99.241211
2420400000,-14.028025,93.649567
2427200000,-13.766921,87.975975
2434000000,-13.729247,81.938576
2440800000,-13.915709,75.957153
2447600000,-14.360217,70.533394
2454400000,-15.055499,65.480881
2461200000,-16.006058,62.157932
2468000000,-17.114285,60.203979
2474800000,-18.577879,60.508121
2481600000,-20.071804,64.595901
2488400000,-21.587204,73.552795
2495200000,-22.213707,88.976974
2502000000,-21.640493,103.89594
2508800000,-20.320435,114.20304
2515600000,-18.764601,120.46687
2522400000,-17.299107,123.48122
2529200000,-15.916896,123.45862
2536000000,-14.821386,122.3422
2542800000,-13.830956,120.84274
2549600000,-12.985067,118.68243
2556400000,-12.210214,116.25861
2563200000,-11.537491,113.49206
2570000000,-10.947633,110.52776
2576800000,-10.410072,107.55122
2583600000,-9.9352808,104.40917
2590400000,-9.5190439,101.05796
2597200000,-9.1445217,97.611153
2604000000,-8.8773861,94.161469
2610800000,-8.6543589,90.965477
2617600000,-8.4380636,88.073898
2624400000,-8.2377892,85.368858
2631200000,-7.9860339,82.584274
2638000000,-7.7572975,79.594635
2644800000,-7.5501361,76.513474
2651600000,-7.3562236,73.391228
2658400000,-7.1669564,70.026115
2665200000,-7.0153151,66.398796
2672000000,-6.9179735,62.793022
2678800000,-6.8410015,59.029305
2685600000,-6.8022575,55.192169
2692400000,-6.8096514,51.29538
2699200000,-6.8305812,47.363197
2706000000,-6.9026594,43.264851
2712800000,-7.035769,39.073059
2719600000,-7.2137952,34.953255
2726400000,-7.4243131,30.694283
2733200000,-7.6714721,26.419975
2740000000,-7.9874649,21.988302
2746800000,-8.3706064,17.598696
2753600000,-8.8173962,13.082309
2760400000,-9.3716125,8.4979858
2767200000,-10.030324,3.8794544
2774000000,-10.801258,-0.65565997
2780800000,-11.728711,-5.3423924
2787600000,-12.864443,-10.106043
2794400000,-14.232954,-14.803138
2801200000,-16.004503,-19.712719
2808000000,-18.369574,-24.021841
2814800000,-21.614414,-27.085819
2821600000,-27.151325,-29.782667
2828400000,-42.63435,29.129208
2835200000,-28.171375,119.80552
2842000000,-21.976183,119.02491
2848800000,-18.55574,115.08291
2855600000,-16.216738,110.33942
2862400000,-14.454385,105.65712
2869200000,-13.038772,101.03413
2876000000,-11.842493,95.926895
2882800000,-10.931403,90.817146
2889600000,-10.175425,85.893547
2896400000,-9.564888,81.017372
2903200000,-9.0506582,76.360771
2910000000,-8.6534386,71.670158
2916800000,-8.3382912,67.243378
2923600000,-8.0711594,62.946724
2930400000,-7.8977156,58.54253
2937200000,-7.8026595,54.344894
2944000000,-7.7489443,50.074509
2950800000,-7.7694116,46.095081
2957600000,-7.8784862,42.019108
2964400000,-8.0631695,38.598392
2971200000,-8.2654572,35.349407
2978000000,-8.5498762,32.339283
2984800000,-8.9003525,29.838802
2991600000,-9.3140135,27.97374
2998400000,-9.7192602,27.359295
3005200000,-10.036519,27.510496
3012000000,-10.255587,28.11488
3018800000,-10.371922,28.923721
3025600000,-10.365621,29.805344
3032400000,-10.246225,30.159103
3039200000,-10.12029,30.006227
3046000000,-9.9604902,29.625984
3052800000,-9.7462654,28.608572
3059600000,-9.5597801,26.878328
3066400000,-9.4306459,24.856567
3073200000,-9.3542805,22.473042
3080000000,-9.2851582,20.012224
3086800000,-9.268362,17.061462
3093600000,-9.3113194,13.841537
3100400000,-9.4671535,10.403102
3107200000,-9.7113314,7.1363344
3114000000,-10.017018,4.1749578
3120800000,-10.364018,1.3013511
3127600000,-10.797314,-1.5534735
3134400000,-11.260118,-4.1905236
3141200000,-11.868793,-6.9611063
3148000000,-12.632664,-9.0112343
3154800000,-13.446356,-10.159668
3161600000,-14.316814,-10.804944
3168400000,-15.310859,-10.7859
3175200000,-16.379545,-9.713501
3182000000,-17.599493,-7.2377911
3188800000,-18.959759,-2.5211463
3195600000,-20.262445,6.4346561
3202400000,-21.080187,18.343418
3209200000,-21.245895,31.952011
3216000000,-20.707411,44.778927
3222800000,-19.659859,55.826649
3229600000,-18.174788,62.797989
3236400000,-16.749319,66.456863
3243200000,-15.484151,67.570343
3250000000,-14.435377,67.582657
3256800000,-13.468289,66.908058
3263600000,-12.634132,65.584068
3270400000,-11.942785,63.965488
3277200000,-11.299015,62.439983
3284000000,-10.727311,60.586285
3290800000,-10.201129,58.672215
3297600000,-9.7460318,56.646545
3304400000,-9.2979383,54.709545
3311200000,-8.8856478,52.45195
3318000000,-8.5380583,49.98357
3324800000,-8.2396441,47.72934
3331600000,-7.9477272,45.441513
3338400000,-7.6901236,43.190361
3345200000,-7.4207959,40.713333
3352000000,-7.2108769,38.282894
3358800000,-7.0474691,35.606293
3365600000,-6.8989334,33.31694
3372400000,-6.7485003,31.052031
3379200000,-6.6320028,28.692768
3386000000,-6.5374131,26.461279
3392800000,-6.4455833,24.314093
3399600000,-6.3538065,22.357548
3406400000,-6.2486415,20.300903
3413200000,-6.1690884,18.112482
3420000000,-6.0848498,16.068474
3426800000,-6.0010428,13.881687
3433600000,-5.9428682,11.489853
3440400000,-5.905436,9.1303329
3447200000,-5.8924527,6.8378005
3454000000,-5.8943958,4.4787397
3460800000,-5.8554797,2.0925276
3467600000,-5.8766751,-0.36563295
3474400000,-5.9309812,-2.7637467
3481200000,-5.9690838,-5.0953674
3488000000,-6.0207787,-7.4533782
3494800000,-6.0931621,-9.859951
3501600000,-6.1629572,-12.2704
3508400000,-6.2714939,-14.729783
3515200000,-6.3826294,-17.049662
3522000000,-6.4860559,-19.446198
3528800000,-6.6333227,-21.934813
3535600000,-6.7939501,-24.491749
3542400000,-6.9625249,-27.047348
3549200000,-7.1693549,-29.777409
3556000000,-7.4147077,-32.377106
3562800000,-7.6907535,-34.970726
3569600000,-7.9748473,-37.489033
3576400000,-8.2941561,-40.005928
3583200000,-8.6408997,-42.678444
3590000000,-9.0372295,-45.391853
3596800000,-9.5090237,-47.874355
3603600000,-9.9571276,-50.314362
3610400000,-10.502798,-52.856937
3617200000,-11.098255,-55.17123
3624000000,-11.750125,-57.308056
3630800000,-12.459633,-59.564976
3637600000,-13.237614,-61.814045
3644400000,-14.192995,-64.144066
3651200000,-15.314205,-66.007957
3658000000,-16.618723,-67.706184
3664800000,-18.267115,-68.694771
3671600000,-20.315844,-67.997261
3678400000,-22.971567,-64.392212
3685200000,-26.230494,-53.311874
3692000000,-29.736147,-24.363268
3698800000,-28.722906,19.114141
3705600000,-25.095848,39.55518
3712400000,-22.29298,47.762337
3719200000,-20.003639,51.669086
3726000000,-18.017269,53.085922
3732800000,-16.370064,52.213657
3739600000,-15.044743,50.689213
3746400000,-13.89519,48.715694
3753200000,-12.923234,46.65419
3760000000,-12.043483,44.346481
3766800000,-11.267704,42.001705
3773600000,-10.55761,39.50032
3780400000,-9.9036436,36.69154
3787200000,-9.3360901,33.790188
3794000000,-8.8446465,30.695192
3800800000,-8.4140453,27.544981
3807600000,-8.0682058,24.559551
3814400000,-7.7614341,21.613585
3821200000,-7.4883475,18.8423
3828000000,-7.2426467,16.166861
3834800000,-7.0312243,13.345107
3841600000,-6.8506341,10.792578
3848400000,-6.6868324,8.2676773
3855200000,-6.519134,5.5537844
3862000000,-6.4134116,2.9181361
3868800000,-6.3187318,0.49612746
3875600000,-6.2562995,-1.783808
3882400000,-6.1931114,-4.0529613
3889200000,-6.156724,-6.3040471
3896000000,-6.1407394,-8.4641066
3902800000,-6.14259,-10.57401
3909600000,-6.1698432,-12.382241
3916400000,-6.202611,-14.035599
3923200000,-6.2220416,-15.604266
3930000000,-6.2417216,-17.065914
3936800000,-6.24962,-18.431292
3943600000,-6.2484984,-19.685049
3950400000,-6.2177734,-20.896025
3957200000,-6.1505203,-22.266159
3964000000,-6.0980053,-23.661259
3970800000,-6.0367126,-25.218527
3977600000,-5.9679708,-26.961391
3984400000,-5.9393039,-28.698303
3991200000,-5.8987098,-30.362974
3998000000,-5.8664126,-32.15414
4004800000,-5.8635759,-33.989788
4011600000,-5.8434753,-35.848667
4018400000,-5.8687687,-37.785435
4025200000,-5.9022665,-39.750416
4032000000,-5.9465594,-41.510563
4038800000,-5.9690433,-43.23494
4045600000,-5.9913816,-45.236355
4052400000,-6.0590806,-47.215141
4059200000,-6.142828,-49.185188
4066000000,-6.2146087,-51.152748
4072800000,-6.292284,-53.110836
4079600000,-6.3858476,-55.183399
4086400000,-6.4945064,-57.188866
4093200000,-6.6202126,-59.061119
4100000000,-6.7755976,-61.091038
4106800000,-6.9320297,-62.952412
4113600000,-7.0963368,-64.706436
4120400000,-7.2520771,-66.407608
4127200000,-7.4167266,-68.349174
4134000000,-7.6035929,-70.424103
4140800000,-7.84758,-72.295303
4147600000,-8.0978527,-73.985893
4154400000,-8.3285742,-75.65551
4161200000,-8.5800095,-77.55851
4168000000,-8.8578634,-79.36351
4174800000,-9.1620121,-81.252769
4181600000,-9.507658,-83.043945
4188400000,-9.8645201,-84.616814
4195200000,-10.237637,-86.042763
4202000000,-10.618594,-87.285995
4208800000,-10.995708,-88.699982
4215600000,-11.418311,-90.105827
4222400000,-11.912593,-91.496529
4229200000,-12.48686,-92.501732
4236000000,-13.050667,-93.175285
4242800000,-13.700296,-93.470116
4249600000,-14.37466,-93.388504
4256400000,-15.064793,-92.701149
4263200000,-15.787804,-91.580162
4270000000,-16.558502,-89.719177
4276800000,-17.360689,-86.694214
4283600000,-18.050566,-82.439308
4290400000,-18.631746,-78.192535
4297200000,-19.19779,-72.593132
4304000000,-19.585966,-66.108498
4310800000,-19.771517,-58.223934
4317600000,-19.532379,-50.751987
4324400000,-19.112581,-44.558956
4331200000,-18.427179,-38.903488
4338000000,-17.633524,-35.175365
4344800000,-16.825605,-33.299271
4351600000,-16.209457,-32.154888
4358400000,-15.566267,-31.154091
4365200000,-14.907263,-31.04122
4372000000,-14.332088,-31.603409
4378800000,-13.796178,-32.620167
4385600000,-13.334646,-34.110977
4392400000,-12.981572,-35.980103
4399200000,-12.722055,-37.724388
4406000000,-12.495737,-39.189232
4412800000,-12.199123,-40.843822
4419600000,-12.006897,-42.97401
4426400000,-11.847224,-45.087856
4433200000,-11.688687,-47.449272
4440000000,-11.624849,-49.904476
4446800000,-11.611976,-52.23336
4453600000,-11.631941,-54.644497
4460400000,-11.684311,-56.705112
4467200000,-11.767015,-58.847225
4474000000,-11.856861,-60.775879
4480800000,-11.957033,-63.133564
4487600000,-12.167295,-65.255646
4494400000,-12.40779,-67.374672
4501200000,-12.716634,-69.382584
4508000000,-13.107151,-71.180702
4514800000,-13.531354,-72.810898
4521600000,-14.066483,-74.281433
4528400000,-14.754958,-75.359192
4535200000,-15.515921,-75.147118
4542000000,-16.310587,-73.965027
4548800000,-17.162592,-71.654419
4555600000,-18.000889,-67.546997
4562400000,-18.75876,-61.3424
4569200000,-19.232197,-53.21648
4576000000,-19.238903,-43.690815
4582800000,-18.749098,-35.103722
4589600000,-17.954002,-28.515678
4596400000,-17.03293,-23.607708
4603200000,-16.116146,-20.529778
4610000000,-15.12806,-18.4702
4616800000,-14.170472,-17.818583
4623600000,-13.33381,-18.470074
4630400000,-12.574886,-19.471281
4637200000,-11.923812,-21.051445
4644000000,-11.339574,-22.820961
4650800000,-10.803228,-24.77804
4657600000,-10.334723,-27.147228
4664400000,-9.9284105,-29.64827
4671200000,-9.5709534,-32.162651
4678000000,-9.262434,-34.69558
4684800000,-8.9785318,-37.305454
4691600000,-8.7413778,-40.007801
4698400000,-8.5274076,-42.624107
4705200000,-8.3438377,-45.234032
4712000000,-8.1769142,-47.881996
4718800000,-8.0342884,-50.685577
4725600000,-7.9339571,-53.333916
4732400000,-7.8528099,-56.05331
4739200000,-7.8141179,-58.808071
4746000000,-7.8222809,-61.256306
4752800000,-7.7940583,-63.624874
